* gnucap mextram test vce
DC transfer characteristic  Sun Apr 11 02:26:29  2010
----------------------------------------------------------------------------------------------------------------------------------------
Index   v-sweep         v(b)            v(c)            v(b)            v(s)            vc#branch       vb#branch          vs#branch         
----------------------------------------------------------------------------------------------------------------------------------------
0	0.000000e+00	0.000000e+00	3.000000e+00	0.000000e+00    0.000000e+00    -2.99995e-12    3.000072e-12       -3.77157e-48    
1	1.000000e-01	1.000000e-01	3.000000e+00	1.000000e-01    0.000000e+00    -2.90092e-12    2.794817e-12       -5.31883e-33    
2	2.000000e-01	2.000000e-01	3.000000e+00	2.000000e-01    0.000000e+00    -2.80567e-12    2.547052e-12       -4.63344e-33    
3	3.000000e-01	3.000000e-01	3.000000e+00	3.000000e-01    0.000000e+00    -5.00649e-12    1.464021e-12       4.270172e-33    
4	4.000000e-01	4.000000e-01	3.000000e+00	4.000000e-01    0.000000e+00    -1.09644e-10    -4.87431e-12       -2.08668e-33    
5	5.000000e-01	5.000000e-01	3.000000e+00	5.000000e-01    0.000000e+00    -4.95946e-09    -7.22754e-11       -8.13070e-33    
6	6.000000e-01	6.000000e-01	3.000000e+00	6.000000e-01    0.000000e+00    -2.28640e-07    -1.73059e-09       -3.40590e-33    
7	7.000000e-01	7.000000e-01	3.000000e+00	7.000000e-01    0.000000e+00    -1.04605e-05    -7.14656e-08       4.584357e-33    
8	8.000000e-01	8.000000e-01	3.000000e+00	8.000000e-01    0.000000e+00    -4.41246e-04    -3.18967e-06       4.881781e-33    
9	9.000000e-01	9.000000e-01	3.000000e+00	9.000000e-01    0.000000e+00    -6.47222e-03    -5.72920e-05       -1.18324e-32    
10	1.000000e-00	1.000000e-00	3.000000e+00	1.000000e-00    0.000000e+00    -1.86299e-02    -2.99964e-04       -1.97953e-31    
11	1.100000e+00	1.100000e+00	3.000000e+00	1.100000e+00    0.000000e+00    -3.13830e-02    -8.84185e-04       3.674566e-31    
12	1.200000e+00	1.200000e+00	3.000000e+00	1.200000e+00    0.000000e+00    -4.31924e-02    -1.84947e-03       1.342896e-29    
13	1.300000e+00	1.300000e+00	3.000000e+00	1.300000e+00    0.000000e+00    -5.36928e-02    -3.14036e-03       5.770109e-26    
14	1.400000e+00	1.400000e+00	3.000000e+00	1.400000e+00    0.000000e+00    -6.29302e-02    -4.68393e-03       5.578878e-21    
15	1.500000e+00	1.500000e+00	3.000000e+00	1.500000e+00    0.000000e+00    -7.10391e-02    -6.42555e-03       2.289808e-16    
16	1.600000e+00	1.600000e+00	3.000000e+00	1.600000e+00    0.000000e+00    -7.81890e-02    -8.31874e-03       4.403151e-12    
17	1.700000e+00	1.700000e+00	3.000000e+00	1.700000e+00    0.000000e+00    -8.45113e-02    -1.03327e-02       4.352375e-08    
18	1.800000e+00	1.800000e+00	3.000000e+00	1.800000e+00    0.000000e+00    -8.99197e-02    -1.25952e-02       1.188467e-04    
19	1.900000e+00	1.900000e+00	3.000000e+00	1.900000e+00    0.000000e+00    -9.22120e-02    -1.78867e-02       2.057013e-03    
20	2.000000e+00	2.000000e+00	3.000000e+00	2.000000e+00    0.000000e+00    -9.11279e-02    -2.62360e-02       5.058593e-03    
