Gnucap 2009.12.07 RCS 26.136
The Gnu Circuit Analysis Package
Never trust any version less than 1.0
Copyright 1982-2009, Albert Davis
Gnucap comes with ABSOLUTELY NO WARRANTY
This is free software, and you are welcome
to redistribute it under the terms of 
the GNU General Public License, version 3 or later.
See the file "COPYING" for details.
Q: already installed, replacing
stashing as Q:0
HICUM0 Output Test Ic=f(Vc,Ib) 
.model hic0_ful ... =1.0e-10  tnom=27.0 dt=0.0 npn=1 pnp=0 
                                        ^ ? hic0_full: bad parameter dt ignored
#           v(c)       v(b)       i(VC)      v(dt)     
open circuit: internal node 4
 0.         53.14E-12  0.88513    5.3135E-6  0.0088513 
 0.05       0.05       0.90718   -864.49E-6  0.052296  
 0.1        0.1        0.91909   -0.0014102  0.15021   
 0.15       0.15       0.92283   -0.001599   0.24908   
 0.2        0.2        0.92364   -0.0016505  0.33935   
 0.25       0.25       0.92387   -0.0016736  0.42764   
 0.3        0.3        0.92398   -0.0016901  0.51628   
 0.35       0.35       0.92406   -0.0017046  0.60584   
 0.4        0.4        0.92412   -0.001718   0.69643   
 0.45       0.45       0.92417   -0.0017307  0.78807   
 0.5        0.5        0.92422   -0.001743   0.88072   
 0.55       0.55       0.92426   -0.0017548  0.97438   
 0.6        0.6        0.92429   -0.0017663  1.069     
 0.65       0.65       0.92432   -0.0017776  1.1647    
 0.7        0.7        0.92434   -0.0017886  1.2612    
 0.75       0.75       0.92436   -0.0017994  1.3588    
 0.8        0.8        0.92438   -0.00181    1.4573    
 0.85       0.85       0.92439   -0.0018205  1.5567    
 0.9        0.9        0.9244    -0.0018309  1.6571    
 0.95       0.95       0.92441   -0.0018412  1.7583    
 1.         1.         0.92442   -0.0018513  1.8605    
 1.05       1.05       0.92442   -0.0018614  1.9637    
 1.1        1.1        0.92443   -0.0018713  2.0677    
 1.15       1.15       0.92443   -0.0018812  2.1726    
 1.2        1.2        0.92442   -0.0018911  2.2785    
 1.25       1.25       0.92442   -0.0019008  2.3853    
 1.3        1.3        0.92441   -0.0019105  2.493     
 1.35       1.35       0.92441   -0.0019202  2.6015    
 1.4        1.4        0.9244    -0.0019299  2.711     
 1.45       1.45       0.92439   -0.0019394  2.8214    
 1.5        1.5        0.92438   -0.001949   2.9328    
 1.55       1.55       0.92436   -0.0019585  3.045     
 1.6        1.6        0.92435   -0.001968   3.1581    
 1.65       1.65       0.92433   -0.0019775  3.2722    
 1.7        1.7        0.92431   -0.001987   3.3871    
 1.75       1.75       0.92429   -0.0019964  3.503     
 1.8        1.8        0.92427   -0.0020059  3.6198    
 1.85       1.85       0.92425   -0.0020153  3.7375    
 1.9        1.9        0.92423   -0.0020247  3.8561    
 1.95       1.95       0.9242    -0.0020341  3.9757    
 2.         2.         0.92418   -0.0020435  4.0962    
 2.05       2.05       0.92415   -0.0020528  4.2176    
 2.1        2.1        0.92412   -0.0020622  4.3399    
 2.15       2.15       0.9241    -0.0020716  4.4632    
 2.2        2.2        0.92407   -0.002081   4.5874    
 2.25       2.25       0.92403   -0.0020904  4.7126    
 2.3        2.3        0.924     -0.0020997  4.8387    
 2.35       2.35       0.92397   -0.0021091  4.9657    
 2.4        2.4        0.92393   -0.0021185  5.0937    
 2.45       2.45       0.9239    -0.0021279  5.2227    
 2.5        2.5        0.92386   -0.0021373  5.3526    
 2.55       2.55       0.92382   -0.0021468  5.4835    
 2.6        2.6        0.92379   -0.0021562  5.6153    
 2.65       2.65       0.92375   -0.0021656  5.7481    
 2.7        2.7        0.92371   -0.0021751  5.8819    
 2.75       2.75       0.92366   -0.0021845  6.0167    
 2.8        2.8        0.92362   -0.002194   6.1525    
 2.85       2.85       0.92358   -0.0022035  6.2892    
 2.9        2.9        0.92353   -0.002213   6.427     
 2.95       2.95       0.92349   -0.0022225  6.5657    
 3.         3.         0.92344   -0.0022321  6.7055    
 0.         108.9E-12  0.9038     10.888E-6  0.018076  
 0.05       0.05       0.92859   -0.0012687  0.082006  
 0.1        0.1        0.94722   -0.0023203  0.25098   
 0.15       0.15       0.95733   -0.0029252  0.45792   
 0.2        0.2        0.96052   -0.0031331  0.64582   
 0.25       0.25       0.96131   -0.0032001  0.81925   
 0.3        0.3        0.96161   -0.0032373  0.99043   
 0.35       0.35       0.96179   -0.0032663  1.1624    
 0.4        0.4        0.96192   -0.0032918  1.336     
 0.45       0.45       0.96202   -0.0033156  1.5113    
 0.5        0.5        0.9621    -0.0033382  1.6883    
 0.55       0.55       0.96217   -0.0033598  1.8671    
 0.6        0.6        0.96223   -0.0033807  2.0477    
 0.65       0.65       0.96229   -0.003401   2.2299    
 0.7        0.7        0.96233   -0.0034208  2.4138    
 0.75       0.75       0.96236   -0.0034401  2.5993    
 0.8        0.8        0.96239   -0.0034591  2.7865    
 0.85       0.85       0.96241   -0.0034777  2.9753    
 0.9        0.9        0.96243   -0.003496   3.1657    
 0.95       0.95       0.96244   -0.0035141  3.3577    
 1.         1.         0.96245   -0.003532   3.5512    
 1.05       1.05       0.96245   -0.0035496  3.7463    
 1.1        1.1        0.96245   -0.0035671  3.943     
 1.15       1.15       0.96244   -0.0035844  4.1413    
 1.2        1.2        0.96243   -0.0036015  4.3411    
 1.25       1.25       0.96242   -0.0036185  4.5424    
 1.3        1.3        0.9624    -0.0036354  4.7453    
 1.35       1.35       0.96238   -0.0036522  4.9497    
 1.4        1.4        0.96236   -0.0036688  5.1556    
 1.45       1.45       0.96233   -0.0036854  5.363     
 1.5        1.5        0.9623    -0.0037019  5.572     
 1.55       1.55       0.96227   -0.0037182  5.7825    
 1.6        1.6        0.96224   -0.0037346  5.9945    
 1.65       1.65       0.9622    -0.0037508  6.2081    
 1.7        1.7        0.96216   -0.003767   6.4231    
 1.75       1.75       0.96212   -0.0037831  6.6397    
 1.8        1.8        0.96207   -0.0037992  6.8577    
 1.85       1.85       0.96202   -0.0038152  7.0773    
 1.9        1.9        0.96197   -0.0038312  7.2984    
 1.95       1.95       0.96192   -0.0038471  7.5211    
 2.         2.         0.96187   -0.003863   7.7452    
 2.05       2.05       0.96181   -0.0038788  7.9709    
 2.1        2.1        0.96175   -0.0038947  8.1981    
 2.15       2.15       0.96169   -0.0039105  8.4268    
 2.2        2.2        0.96163   -0.0039262  8.657     
 2.25       2.25       0.96157   -0.003942   8.8887    
 2.3        2.3        0.9615    -0.0039577  9.122     
 2.35       2.35       0.96143   -0.0039734  9.3568    
 2.4        2.4        0.96136   -0.0039891  9.5931    
 2.45       2.45       0.96129   -0.0040048  9.831     
 2.5        2.5        0.96121   -0.0040205  10.07     
 2.55       2.55       0.96113   -0.0040361  10.311    
 2.6        2.6        0.96105   -0.0040518  10.554    
 2.65       2.65       0.96097   -0.0040674  10.798    
 2.7        2.7        0.96089   -0.004083   11.043    
 2.75       2.75       0.96081   -0.0040987  11.291    
 2.8        2.8        0.96072   -0.0041143  11.539    
 2.85       2.85       0.96063   -0.0041299  11.789    
 2.9        2.9        0.96054   -0.0041455  12.041    
 2.95       2.95       0.96045   -0.0041611  12.295    
 3.         3.         0.96035   -0.0041768  12.549    
 0.         165.5E-12  0.91491    16.546E-6  0.027447  
 0.05       0.05       0.94093   -0.0014869  0.10257   
 0.1        0.1        0.96309   -0.0028479  0.31368   
 0.15       0.15       0.97919   -0.0038802  0.61141   
 0.2        0.2        0.98712   -0.0044126  0.91213   
 0.25       0.25       0.98947   -0.0045892  1.177     
 0.3        0.3        0.99015   -0.0046589  1.4274    
 0.35       0.35       0.99047   -0.004705   1.6765    
 0.4        0.4        0.99067   -0.0047428  1.9268    
 0.45       0.45       0.99083   -0.0047767  2.1793    
 0.5        0.5        0.99095   -0.0048084  2.4339    
 0.55       0.55       0.99105   -0.0048385  2.6909    
 0.6        0.6        0.99113   -0.0048673  2.9501    
 0.65       0.65       0.9912    -0.0048952  3.2116    
 0.7        0.7        0.99125   -0.0049222  3.4753    
 0.75       0.75       0.99129   -0.0049485  3.7411    
 0.8        0.8        0.99132   -0.0049743  4.0092    
 0.85       0.85       0.99134   -0.0049995  4.2793    
 0.9        0.9        0.99136   -0.0050242  4.5516    
 0.95       0.95       0.99136   -0.0050486  4.8259    
 1.         1.         0.99136   -0.0050726  5.1023    
 1.05       1.05       0.99136   -0.0050962  5.3808    
 1.1        1.1        0.99135   -0.0051196  5.6613    
 1.15       1.15       0.99133   -0.0051427  5.9438    
 1.2        1.2        0.9913    -0.0051656  6.2284    
 1.25       1.25       0.99127   -0.0051882  6.515     
 1.3        1.3        0.99124   -0.0052106  6.8035    
 1.35       1.35       0.9912    -0.0052329  7.0941    
 1.4        1.4        0.99116   -0.0052549  7.3866    
 1.45       1.45       0.99111   -0.0052768  7.6811    
 1.5        1.5        0.99106   -0.0052986  7.9776    
 1.55       1.55       0.991     -0.0053202  8.276     
 1.6        1.6        0.99094   -0.0053417  8.5764    
 1.65       1.65       0.99088   -0.005363   8.8787    
 1.7        1.7        0.99081   -0.0053843  9.183     
 1.75       1.75       0.99074   -0.0054054  9.4892    
 1.8        1.8        0.99067   -0.0054265  9.7974    
 1.85       1.85       0.99059   -0.0054474  10.107    
 1.9        1.9        0.99051   -0.0054683  10.419    
 1.95       1.95       0.99043   -0.0054891  10.733    
 2.         2.         0.99034   -0.0055098  11.049    
 2.05       2.05       0.99025   -0.0055304  11.367    
 2.1        2.1        0.99016   -0.005551   11.687    
 2.15       2.15       0.99006   -0.0055715  12.008    
 2.2        2.2        0.98996   -0.005592   12.332    
 2.25       2.25       0.98986   -0.0056124  12.657    
 2.3        2.3        0.98975   -0.0056327  12.985    
 2.35       2.35       0.98964   -0.005653   13.314    
 2.4        2.4        0.98953   -0.0056732  13.645    
 2.45       2.45       0.98942   -0.0056934  13.979    
 2.5        2.5        0.9893    -0.0057136  14.314    
 2.55       2.55       0.98918   -0.0057337  14.651    
 2.6        2.6        0.98906   -0.0057538  14.99     
 2.65       2.65       0.98894   -0.0057738  15.33     
 2.7        2.7        0.98881   -0.0057939  15.673    
 2.75       2.75       0.98868   -0.0058138  16.018    
 2.8        2.8        0.98855   -0.0058338  16.364    
 2.85       2.85       0.98841   -0.0058537  16.713    
 2.9        2.9        0.98827   -0.0058736  17.063    
 2.95       2.95       0.98813   -0.0058935  17.416    
 3.         3.         0.98799   -0.0059134  17.77     
 0.         222.4E-12  0.9229     22.24E-6   0.036916  
 0.05       0.05       0.9496    -0.001621   0.11903   
 0.1        0.1        0.97364   -0.0031696  0.35591   
 0.15       0.15       0.99361   -0.0045012  0.71493   
 0.2        0.2        1.007     -0.0054205  1.1244    
 0.25       0.25       1.0126    -0.0058327  1.4987    
 0.3        0.3        1.0142    -0.0059713  1.832     
 0.35       0.35       1.0148    -0.0060409  2.1549    
 0.4        0.4        1.0151    -0.0060928  2.4777    
 0.45       0.45       1.0153    -0.006137   2.8023    
 0.5        0.5        1.0155    -0.0061772  3.1292    
 0.55       0.55       1.0156    -0.0062149  3.4588    
 0.6        0.6        1.0157    -0.0062508  3.7911    
 0.65       0.65       1.0158    -0.0062853  4.1261    
 0.7        0.7        1.0158    -0.0063186  4.4637    
 0.75       0.75       1.0159    -0.0063509  4.8038    
 0.8        0.8        1.0159    -0.0063824  5.1466    
 0.85       0.85       1.0159    -0.0064132  5.4918    
 0.9        0.9        1.016     -0.0064433  5.8396    
 0.95       0.95       1.0159    -0.0064729  6.1899    
 1.         1.         1.0159    -0.0065019  6.5426    
 1.05       1.05       1.0159    -0.0065305  6.8977    
 1.1        1.1        1.0159    -0.0065588  7.2553    
 1.15       1.15       1.0159    -0.0065866  7.6152    
 1.2        1.2        1.0158    -0.0066141  7.9776    
 1.25       1.25       1.0158    -0.0066413  8.3423    
 1.3        1.3        1.0157    -0.0066682  8.7093    
 1.35       1.35       1.0157    -0.0066949  9.0787    
 1.4        1.4        1.0156    -0.0067213  9.4504    
 1.45       1.45       1.0155    -0.0067475  9.8245    
 1.5        1.5        1.0154    -0.0067735  10.201    
 1.55       1.55       1.0154    -0.0067992  10.579    
 1.6        1.6        1.0153    -0.0068248  10.96     
 1.65       1.65       1.0152    -0.0068502  11.344    
 1.7        1.7        1.0151    -0.0068755  11.729    
 1.75       1.75       1.015     -0.0069006  12.117    
 1.8        1.8        1.0149    -0.0069256  12.507    
 1.85       1.85       1.0148    -0.0069504  12.899    
 1.9        1.9        1.0146    -0.0069751  13.293    
 1.95       1.95       1.0145    -0.0069996  13.69     
 2.         2.         1.0144    -0.0070241  14.089    
 2.05       2.05       1.0143    -0.0070484  14.49     
 2.1        2.1        1.0141    -0.0070727  14.893    
 2.15       2.15       1.014     -0.0070968  15.299    
 2.2        2.2        1.0139    -0.0071209  15.706    
 2.25       2.25       1.0137    -0.0071448  16.116    
 2.3        2.3        1.0136    -0.0071687  16.529    
 2.35       2.35       1.0134    -0.0071925  16.943    
 2.4        2.4        1.0133    -0.0072162  17.359    
 2.45       2.45       1.0131    -0.0072398  17.778    
 2.5        2.5        1.013     -0.0072634  18.199    
 2.55       2.55       1.0128    -0.0072869  18.622    
 2.6        2.6        1.0126    -0.0073103  19.047    
 2.65       2.65       1.0125    -0.0073337  19.475    
 2.7        2.7        1.0123    -0.007357   19.904    
 2.75       2.75       1.0121    -0.0073803  20.336    
 2.8        2.8        1.0119    -0.0074035  20.77     
 2.85       2.85       1.0118    -0.0074266  21.206    
 2.9        2.9        1.0116    -0.0074497  21.645    
 2.95       2.95       1.0114    -0.0074727  22.085    
 3.         3.         1.0112    -0.0074957  22.528    
 0.         279.5E-12  0.9292     27.953E-6  0.04646   
 0.05       0.05       0.9563    -0.0017108  0.13336   
 0.1        0.1        0.98144   -0.0033822  0.38729   
 0.15       0.15       1.0037    -0.0049063  0.78614   
 0.2        0.2        1.0213    -0.0061389  1.2788    
 0.25       0.25       1.0316    -0.0068858  1.773     
 0.3        0.3        1.0353    -0.0071771  2.2049    
 0.35       0.35       1.0363    -0.0072877  2.6025    
 0.4        0.4        1.0368    -0.0073573  2.9947    
 0.45       0.45       1.0371    -0.007413   3.3877    
 0.5        0.5        1.0373    -0.0074619  3.7828    
 0.55       0.55       1.0375    -0.0075069  4.1807    
 0.6        0.6        1.0376    -0.0075493  4.5815    
 0.65       0.65       1.0377    -0.0075898  4.9852    
 0.7        0.7        1.0377    -0.0076287  5.392     
 0.75       0.75       1.0378    -0.0076663  5.8016    
 0.8        0.8        1.0378    -0.0077028  6.2141    
 0.85       0.85       1.0378    -0.0077384  6.6295    
 0.9        0.9        1.0378    -0.0077732  7.0477    
 0.95       0.95       1.0378    -0.0078072  7.4687    
 1.         1.         1.0378    -0.0078406  7.8925    
 1.05       1.05       1.0378    -0.0078735  8.319     
 1.1        1.1        1.0377    -0.0079058  8.7482    
 1.15       1.15       1.0377    -0.0079376  9.1802    
 1.2        1.2        1.0376    -0.0079691  9.6148    
 1.25       1.25       1.0375    -0.0080001  10.052    
 1.3        1.3        1.0374    -0.0080308  10.492    
 1.35       1.35       1.0374    -0.0080611  10.934    
 1.4        1.4        1.0373    -0.0080911  11.379    
 1.45       1.45       1.0372    -0.0081208  11.827    
 1.5        1.5        1.0371    -0.0081503  12.277    
 1.55       1.55       1.037     -0.0081795  12.73     
 1.6        1.6        1.0368    -0.0082085  13.185    
 1.65       1.65       1.0367    -0.0082372  13.643    
 1.7        1.7        1.0366    -0.0082657  14.104    
 1.75       1.75       1.0365    -0.0082941  14.566    
 1.8        1.8        1.0363    -0.0083222  15.032    
 1.85       1.85       1.0362    -0.0083502  15.5      
 1.9        1.9        1.036     -0.0083779  15.97     
 1.95       1.95       1.0359    -0.0084056  16.443    
 2.         2.         1.0357    -0.008433   16.918    
 2.05       2.05       1.0355    -0.0084604  17.396    
 2.1        2.1        1.0354    -0.0084875  17.876    
 2.15       2.15       1.0352    -0.0085146  18.358    
 2.2        2.2        1.035     -0.0085415  18.843    
 2.25       2.25       1.0348    -0.0085683  19.33     
 2.3        2.3        1.0347    -0.008595   19.82     
 2.35       2.35       1.0345    -0.0086215  20.312    
 2.4        2.4        1.0343    -0.008648   20.807    
 2.45       2.45       1.0341    -0.0086743  21.304    
 2.5        2.5        1.0339    -0.0087006  21.803    
 2.55       2.55       1.0337    -0.0087267  22.305    
 2.6        2.6        1.0335    -0.0087528  22.809    
 2.65       2.65       1.0332    -0.0087787  23.315    
 2.7        2.7        1.033     -0.0088046  23.824    
 2.75       2.75       1.0328    -0.0088304  24.335    
 2.8        2.8        1.0326    -0.0088561  24.849    
 2.85       2.85       1.0323    -0.0088817  25.365    
 2.9        2.9        1.0321    -0.0089073  25.883    
 2.95       2.95       1.0319    -0.0089327  26.403    
 3.         3.         1.0316    -0.0089581  26.926    
 0.         336.8E-12  0.93441    33.679E-6  0.056065  
 0.05       0.05       0.96179   -0.0017746  0.14644   
 0.1        0.1        0.98763   -0.003532   0.41246   
 0.15       0.15       1.0113    -0.0051842  0.83831   
 0.2        0.2        1.0317    -0.0066332  1.3885    
 0.25       0.25       1.0464    -0.0077051  1.9891    
 0.3        0.3        1.0536    -0.008254   2.5394    
 0.35       0.35       1.0558    -0.0084525  3.0217    
 0.4        0.4        1.0565    -0.0085472  3.4823    
 0.45       0.45       1.057     -0.0086168  3.941     
 0.5        0.5        1.0572    -0.0086752  4.401     
 0.55       0.55       1.0574    -0.0087275  4.8636    
 0.6        0.6        1.0575    -0.0087762  5.3291    
 0.65       0.65       1.0576    -0.0088222  5.7979    
 0.7        0.7        1.0577    -0.0088663  6.2698    
 0.75       0.75       1.0577    -0.0089087  6.745     
 0.8        0.8        1.0578    -0.0089497  7.2232    
 0.85       0.85       1.0578    -0.0089896  7.7046    
 0.9        0.9        1.0578    -0.0090285  8.1891    
 0.95       0.95       1.0577    -0.0090665  8.6766    
 1.         1.         1.0577    -0.0091037  9.1672    
 1.05       1.05       1.0576    -0.0091402  9.6607    
 1.1        1.1        1.0576    -0.0091761  10.157    
 1.15       1.15       1.0575    -0.0092115  10.657    
 1.2        1.2        1.0574    -0.0092463  11.159    
 1.25       1.25       1.0573    -0.0092806  11.664    
 1.3        1.3        1.0572    -0.0093145  12.172    
 1.35       1.35       1.0571    -0.0093479  12.683    
 1.4        1.4        1.057     -0.009381   13.197    
 1.45       1.45       1.0569    -0.0094137  13.713    
 1.5        1.5        1.0567    -0.0094462  14.233    
 1.55       1.55       1.0566    -0.0094782  14.755    
 1.6        1.6        1.0565    -0.0095101  15.279    
 1.65       1.65       1.0563    -0.0095416  15.807    
 1.7        1.7        1.0561    -0.0095728  16.337    
 1.75       1.75       1.056     -0.0096039  16.87     
 1.8        1.8        1.0558    -0.0096347  17.406    
 1.85       1.85       1.0556    -0.0096652  17.944    
 1.9        1.9        1.0554    -0.0096956  18.485    
 1.95       1.95       1.0553    -0.0097257  19.028    
