* test circuit psp102 
#           v(VG)      v(VD)      I(VD)     
 0.         0.         0.         0.        
 0.1        0.1        0.         0.        
 0.2        0.2        0.         0.        
 0.3        0.3        0.         0.        
 0.4        0.4        0.         0.        
 0.5        0.5        0.         0.        
 0.6        0.6        0.         0.        
 0.7        0.7        0.         0.        
 0.8        0.8        0.         0.        
 0.9        0.9        0.         0.        
 1.         1.         0.         0.        
 1.1        1.1        0.         0.        
 1.2        1.2        0.         0.        
 1.3        1.3        0.         0.        
 1.4        1.4        0.         0.        
 1.5        1.5        0.         0.        
 1.6        1.6        0.         0.        
 1.7        1.7        0.         0.        
 1.8        1.8        0.         0.        
 1.9        1.9        0.         0.        
 2.         2.         0.         0.        
 2.1        2.1        0.         0.        
 2.2        2.2        0.         0.        
 2.3        2.3        0.         0.        
 2.4        2.4        0.         0.        
 2.5        2.5        0.         0.        
 0.         0.         0.5       -34.5E-9   
 0.1        0.1        0.5       -708.46E-9 
 0.2        0.2        0.5       -4.5894E-6 
 0.3        0.3        0.5       -13.715E-6 
 0.4        0.4        0.5       -28.488E-6 
 0.5        0.5        0.5       -48.702E-6 
 0.6        0.6        0.5       -73.911E-6 
 0.7        0.7        0.5       -102.68E-6 
 0.8        0.8        0.5       -130.57E-6 
 0.9        0.9        0.5       -155.51E-6 
 1.         1.         0.5       -177.94E-6 
 1.1        1.1        0.5       -198.12E-6 
 1.2        1.2        0.5       -216.26E-6 
 1.3        1.3        0.5       -232.56E-6 
 1.4        1.4        0.5       -247.2E-6  
 1.5        1.5        0.5       -260.37E-6 
 1.6        1.6        0.5       -272.23E-6 
 1.7        1.7        0.5       -282.92E-6 
 1.8        1.8        0.5       -292.57E-6 
 1.9        1.9        0.5       -301.29E-6 
 2.         2.         0.5       -309.19E-6 
 2.1        2.1        0.5       -316.35E-6 
 2.2        2.2        0.5       -322.84E-6 
 2.3        2.3        0.5       -328.74E-6 
 2.4        2.4        0.5       -334.11E-6 
 2.5        2.5        0.5       -338.99E-6 
 0.         0.         1.        -34.55E-9  
 0.1        0.1        1.        -708.51E-9 
 0.2        0.2        1.        -4.5895E-6 
 0.3        0.3        1.        -13.715E-6 
 0.4        0.4        1.        -28.489E-6 
 0.5        0.5        1.        -48.705E-6 
 0.6        0.6        1.        -73.965E-6 
 0.7        0.7        1.        -103.81E-6 
 0.8        0.8        1.        -137.79E-6 
 0.9        0.9        1.        -175.47E-6 
 1.         1.         1.        -216.41E-6 
 1.1        1.1        1.        -260.19E-6 
 1.2        1.2        1.        -306.06E-6 
 1.3        1.3        1.        -352.17E-6 
 1.4        1.4        1.        -395.04E-6 
 1.5        1.5        1.        -432.34E-6 
 1.6        1.6        1.        -464.63E-6 
 1.7        1.7        1.        -493.12E-6 
 1.8        1.8        1.        -518.56E-6 
 1.9        1.9        1.        -541.42E-6 
 2.         2.         1.        -562.05E-6 
 2.1        2.1        1.        -580.69E-6 
 2.2        2.2        1.        -597.56E-6 
 2.3        2.3        1.        -612.87E-6 
 2.4        2.4        1.        -626.76E-6 
 2.5        2.5        1.        -639.39E-6 
 0.         0.         1.5       -34.521E-9 
 0.1        0.1        1.5       -708.49E-9 
 0.2        0.2        1.5       -4.5895E-6 
 0.3        0.3        1.5       -13.716E-6 
 0.4        0.4        1.5       -28.489E-6 
 0.5        0.5        1.5       -48.705E-6 
 0.6        0.6        1.5       -73.966E-6 
 0.7        0.7        1.5       -103.82E-6 
 0.8        0.8        1.5       -137.8E-6  
 0.9        0.9        1.5       -175.47E-6 
 1.         1.         1.5       -216.43E-6 
 1.1        1.1        1.5       -260.31E-6 
 1.2        1.2        1.5       -306.77E-6 
 1.3        1.3        1.5       -355.51E-6 
 1.4        1.4        1.5       -406.26E-6 
 1.5        1.5        1.5       -458.75E-6 
 1.6        1.6        1.5       -512.66E-6 
 1.7        1.7        1.5       -567.54E-6 
 1.8        1.8        1.5       -622.45E-6 
 1.9        1.9        1.5       -675.62E-6 
 2.         2.         1.5       -724.58E-6 
 2.1        2.1        1.5       -767.51E-6 
 2.2        2.2        1.5       -804.4E-6  
 2.3        2.3        1.5       -836.32E-6 
 2.4        2.4        1.5       -864.39E-6 
 2.5        2.5        1.5       -889.43E-6 
 0.         0.         2.        -34.528E-9 
 0.1        0.1        2.        -708.52E-9 
 0.2        0.2        2.        -4.5896E-6 
 0.3        0.3        2.        -13.716E-6 
 0.4        0.4        2.        -28.489E-6 
 0.5        0.5        2.        -48.706E-6 
 0.6        0.6        2.        -73.967E-6 
 0.7        0.7        2.        -103.82E-6 
 0.8        0.8        2.        -137.8E-6  
 0.9        0.9        2.        -175.47E-6 
 1.         1.         2.        -216.43E-6 
 1.1        1.1        2.        -260.31E-6 
 1.2        1.2        2.        -306.78E-6 
 1.3        1.3        2.        -355.52E-6 
 1.4        1.4        2.        -406.28E-6 
 1.5        1.5        2.        -458.82E-6 
 1.6        1.6        2.        -512.91E-6 
 1.7        1.7        2.        -568.37E-6 
 1.8        1.8        2.        -625.03E-6 
 1.9        1.9        2.        -682.71E-6 
 2.         2.         2.        -741.25E-6 
 2.1        2.1        2.        -800.43E-6 
 2.2        2.2        2.        -859.92E-6 
 2.3        2.3        2.        -919.16E-6 
 2.4        2.4        2.        -977.18E-6 
 2.5        2.5        2.        -0.0010325 
 0.         0.         2.5       -34.557E-9 
 0.1        0.1        2.5       -708.55E-9 
 0.2        0.2        2.5       -4.5897E-6 
 0.3        0.3        2.5       -13.716E-6 
 0.4        0.4        2.5       -28.489E-6 
 0.5        0.5        2.5       -48.706E-6 
 0.6        0.6        2.5       -73.968E-6 
 0.7        0.7        2.5       -103.82E-6 
 0.8        0.8        2.5       -137.8E-6  
 0.9        0.9        2.5       -175.47E-6 
 1.         1.         2.5       -216.44E-6 
 1.1        1.1        2.5       -260.32E-6 
 1.2        1.2        2.5       -306.78E-6 
 1.3        1.3        2.5       -355.53E-6 
 1.4        1.4        2.5       -406.29E-6 
 1.5        1.5        2.5       -458.82E-6 
 1.6        1.6        2.5       -512.92E-6 
 1.7        1.7        2.5       -568.38E-6 
 1.8        1.8        2.5       -625.05E-6 
 1.9        1.9        2.5       -682.77E-6 
 2.         2.         2.5       -741.41E-6 
 2.1        2.1        2.5       -800.84E-6 
 2.2        2.2        2.5       -860.96E-6 
 2.3        2.3        2.5       -921.66E-6 
 2.4        2.4        2.5       -982.83E-6 
 2.5        2.5        2.5       -0.0010444 
 0.         0.         3.        -34.447E-9 
 0.1        0.1        3.        -708.44E-9 
 0.2        0.2        3.        -4.5895E-6 
 0.3        0.3        3.        -13.716E-6 
 0.4        0.4        3.        -28.489E-6 
 0.5        0.5        3.        -48.706E-6 
 0.6        0.6        3.        -73.968E-6 
 0.7        0.7        3.        -103.82E-6 
 0.8        0.8        3.        -137.8E-6  
 0.9        0.9        3.        -175.47E-6 
 1.         1.         3.        -216.44E-6 
 1.1        1.1        3.        -260.32E-6 
 1.2        1.2        3.        -306.78E-6 
 1.3        1.3        3.        -355.53E-6 
 1.4        1.4        3.        -406.29E-6 
 1.5        1.5        3.        -458.82E-6 
 1.6        1.6        3.        -512.92E-6 
 1.7        1.7        3.        -568.39E-6 
 1.8        1.8        3.        -625.06E-6 
 1.9        1.9        3.        -682.78E-6 
 2.         2.         3.        -741.42E-6 
 2.1        2.1        3.        -800.85E-6 
 2.2        2.2        3.        -860.99E-6 
 2.3        2.3        3.        -921.72E-6 
 2.4        2.4        3.        -982.96E-6 
 2.5        2.5        3.        -0.0010446 
 0.         0.         3.5        0.        
 0.1        0.1        3.5       -708.4E-9  
 0.2        0.2        3.5       -4.5896E-6 
 0.3        0.3        3.5       -13.716E-6 
 0.4        0.4        3.5       -28.489E-6 
 0.5        0.5        3.5       -48.706E-6 
 0.6        0.6        3.5       -73.968E-6 
 0.7        0.7        3.5       -103.82E-6 
 0.8        0.8        3.5       -137.8E-6  
 0.9        0.9        3.5       -175.47E-6 
 1.         1.         3.5       -216.44E-6 
 1.1        1.1        3.5       -260.32E-6 
 1.2        1.2        3.5       -306.78E-6 
 1.3        1.3        3.5       -355.53E-6 
 1.4        1.4        3.5       -406.29E-6 
 1.5        1.5        3.5       -458.83E-6 
 1.6        1.6        3.5       -512.92E-6 
 1.7        1.7        3.5       -568.39E-6 
 1.8        1.8        3.5       -625.06E-6 
 1.9        1.9        3.5       -682.78E-6 
 2.         2.         3.5       -741.42E-6 
 2.1        2.1        3.5       -800.86E-6 
 2.2        2.2        3.5       -860.99E-6 
 2.3        2.3        3.5       -921.72E-6 
 2.4        2.4        3.5       -982.97E-6 
 2.5        2.5        3.5       -0.0010447 
 0.         0.         4.         0.        
 0.1        0.1        4.        -708.41E-9 
 0.2        0.2        4.        -4.5895E-6 
 0.3        0.3        4.        -13.716E-6 
 0.4        0.4        4.        -28.489E-6 
 0.5        0.5        4.        -48.706E-6 
 0.6        0.6        4.        -73.968E-6 
 0.7        0.7        4.        -103.82E-6 
 0.8        0.8        4.        -137.8E-6  
 0.9        0.9        4.        -175.48E-6 
 1.         1.         4.        -216.44E-6 
 1.1        1.1        4.        -260.32E-6 
 1.2        1.2        4.        -306.78E-6 
 1.3        1.3        4.        -355.53E-6 
 1.4        1.4        4.        -406.29E-6 
 1.5        1.5        4.        -458.83E-6 
 1.6        1.6        4.        -512.93E-6 
 1.7        1.7        4.        -568.39E-6 
 1.8        1.8        4.        -625.06E-6 
 1.9        1.9        4.        -682.79E-6 
 2.         2.         4.        -741.42E-6 
 2.1        2.1        4.        -800.86E-6 
 2.2        2.2        4.        -861.E-6   
 2.3        2.3        4.        -921.73E-6 
 2.4        2.4        4.        -982.98E-6 
 2.5        2.5        4.        -0.0010447 
 0.         0.         4.5        0.        
 0.1        0.1        4.5       -708.33E-9 
 0.2        0.2        4.5       -4.5895E-6 
 0.3        0.3        4.5       -13.716E-6 
 0.4        0.4        4.5       -28.489E-6 
 0.5        0.5        4.5       -48.707E-6 
 0.6        0.6        4.5       -73.968E-6 
 0.7        0.7        4.5       -103.82E-6 
 0.8        0.8        4.5       -137.8E-6  
 0.9        0.9        4.5       -175.48E-6 
 1.         1.         4.5       -216.44E-6 
 1.1        1.1        4.5       -260.32E-6 
 1.2        1.2        4.5       -306.78E-6 
 1.3        1.3        4.5       -355.53E-6 
 1.4        1.4        4.5       -406.29E-6 
 1.5        1.5        4.5       -458.83E-6 
 1.6        1.6        4.5       -512.93E-6 
 1.7        1.7        4.5       -568.4E-6  
 1.8        1.8        4.5       -625.07E-6 
 1.9        1.9        4.5       -682.79E-6 
 2.         2.         4.5       -741.43E-6 
 2.1        2.1        4.5       -800.87E-6 
 2.2        2.2        4.5       -861.E-6   
 2.3        2.3        4.5       -921.73E-6 
 2.4        2.4        4.5       -982.98E-6 
 2.5        2.5        4.5       -0.0010447 
 0.         0.         5.         0.        
 0.1        0.1        5.        -708.25E-9 
 0.2        0.2        5.        -4.5894E-6 
 0.3        0.3        5.        -13.716E-6 
 0.4        0.4        5.        -28.489E-6 
 0.5        0.5        5.        -48.707E-6 
 0.6        0.6        5.        -73.969E-6 
 0.7        0.7        5.        -103.82E-6 
 0.8        0.8        5.        -137.8E-6  
 0.9        0.9        5.        -175.48E-6 
 1.         1.         5.        -216.44E-6 
 1.1        1.1        5.        -260.32E-6 
 1.2        1.2        5.        -306.79E-6 
 1.3        1.3        5.        -355.53E-6 
 1.4        1.4        5.        -406.3E-6  
 1.5        1.5        5.        -458.83E-6 
 1.6        1.6        5.        -512.93E-6 
 1.7        1.7        5.        -568.4E-6  
 1.8        1.8        5.        -625.07E-6 
 1.9        1.9        5.        -682.79E-6 
 2.         2.         5.        -741.43E-6 
 2.1        2.1        5.        -800.87E-6 
 2.2        2.2        5.        -861.E-6   
 2.3        2.3        5.        -921.74E-6 
 2.4        2.4        5.        -982.99E-6 
 2.5        2.5        5.        -0.0010447 
