Circuit: * test circuit psp102
                             * test circuit psp102
                             DC transfer characteristic  Sun Apr 11 15:37:12  2010
--------------------------------------------------------------------------------
Index   v-sweep         v(2)            v(1)            vd#branch       
--------------------------------------------------------------------------------
0	0.000000e+00	0.000000e+00	0.000000e+00	0.000000e+00	
1	1.000000e-01	1.000000e-01	0.000000e+00	0.000000e+00	
2	2.000000e-01	2.000000e-01	0.000000e+00	0.000000e+00	
3	3.000000e-01	3.000000e-01	0.000000e+00	0.000000e+00	
4	4.000000e-01	4.000000e-01	0.000000e+00	0.000000e+00	
5	5.000000e-01	5.000000e-01	0.000000e+00	0.000000e+00	
6	6.000000e-01	6.000000e-01	0.000000e+00	0.000000e+00	
7	7.000000e-01	7.000000e-01	0.000000e+00	0.000000e+00	
8	8.000000e-01	8.000000e-01	0.000000e+00	0.000000e+00	
9	9.000000e-01	9.000000e-01	0.000000e+00	0.000000e+00	
10	1.000000e-00	1.000000e-00	0.000000e+00	0.000000e+00	
11	1.100000e+00	1.100000e+00	0.000000e+00	0.000000e+00	
12	1.200000e+00	1.200000e+00	0.000000e+00	0.000000e+00	
13	1.300000e+00	1.300000e+00	0.000000e+00	0.000000e+00	
14	1.400000e+00	1.400000e+00	0.000000e+00	0.000000e+00	
15	1.500000e+00	1.500000e+00	0.000000e+00	0.000000e+00	
16	1.600000e+00	1.600000e+00	0.000000e+00	0.000000e+00	
17	1.700000e+00	1.700000e+00	0.000000e+00	0.000000e+00	
18	1.800000e+00	1.800000e+00	0.000000e+00	0.000000e+00	
19	1.900000e+00	1.900000e+00	0.000000e+00	0.000000e+00	
20	2.000000e+00	2.000000e+00	0.000000e+00	0.000000e+00	
21	2.100000e+00	2.100000e+00	0.000000e+00	0.000000e+00	
22	2.200000e+00	2.200000e+00	0.000000e+00	0.000000e+00	
23	2.300000e+00	2.300000e+00	0.000000e+00	0.000000e+00	
24	2.400000e+00	2.400000e+00	0.000000e+00	0.000000e+00	
25	2.500000e+00	2.500000e+00	0.000000e+00	0.000000e+00	
26	0.000000e+00	0.000000e+00	5.000000e-01	-1.80996e-08	
27	1.000000e-01	1.000000e-01	5.000000e-01	-4.08789e-07	
28	2.000000e-01	2.000000e-01	5.000000e-01	-3.05616e-06	
29	3.000000e-01	3.000000e-01	5.000000e-01	-9.78848e-06	
30	4.000000e-01	4.000000e-01	5.000000e-01	-2.11613e-05	
31	5.000000e-01	5.000000e-01	5.000000e-01	-3.71795e-05	
32	6.000000e-01	6.000000e-01	5.000000e-01	-5.75743e-05	
33	7.000000e-01	7.000000e-01	5.000000e-01	-8.15638e-05	
34	8.000000e-01	8.000000e-01	5.000000e-01	-1.05956e-04	
35	9.000000e-01	9.000000e-01	5.000000e-01	-1.27941e-04	
36	1.000000e-00	1.000000e-00	5.000000e-01	-1.47195e-04	
37	1.100000e+00	1.100000e+00	5.000000e-01	-1.63567e-04	
38	1.200000e+00	1.200000e+00	5.000000e-01	-1.77034e-04	
39	1.300000e+00	1.300000e+00	5.000000e-01	-1.87706e-04	
40	1.400000e+00	1.400000e+00	5.000000e-01	-1.95787e-04	
41	1.500000e+00	1.500000e+00	5.000000e-01	-2.01542e-04	
42	1.600000e+00	1.600000e+00	5.000000e-01	-2.05260e-04	
43	1.700000e+00	1.700000e+00	5.000000e-01	-2.07233e-04	
44	1.800000e+00	1.800000e+00	5.000000e-01	-2.07741e-04	
45	1.900000e+00	1.900000e+00	5.000000e-01	-2.07043e-04	
46	2.000000e+00	2.000000e+00	5.000000e-01	-2.05368e-04	
47	2.100000e+00	2.100000e+00	5.000000e-01	-2.02919e-04	
48	2.200000e+00	2.200000e+00	5.000000e-01	-1.99867e-04	
49	2.300000e+00	2.300000e+00	5.000000e-01	-1.96358e-04	
50	2.400000e+00	2.400000e+00	5.000000e-01	-1.92662e-04	
51	2.500000e+00	2.500000e+00	5.000000e-01	-1.88535e-04	
52	0.000000e+00	0.000000e+00	1.000000e+00	-1.91653e-08	
53	1.000000e-01	1.000000e-01	1.000000e+00	-4.35394e-07	
54	2.000000e-01	2.000000e-01	1.000000e+00	-3.22078e-06	
55	3.000000e-01	3.000000e-01	1.000000e+00	-1.01823e-05	
56	4.000000e-01	4.000000e-01	1.000000e+00	-2.18448e-05	
57	5.000000e-01	5.000000e-01	1.000000e+00	-3.82176e-05	
58	6.000000e-01	6.000000e-01	1.000000e+00	-5.90607e-05	
59	7.000000e-01	7.000000e-01	1.000000e+00	-8.39841e-05	
60	8.000000e-01	8.000000e-01	1.000000e+00	-1.12501e-04	
61	9.000000e-01	9.000000e-01	1.000000e+00	-1.44065e-04	
62	1.000000e-00	1.000000e-00	1.000000e+00	-1.78093e-04	
63	1.100000e+00	1.100000e+00	1.000000e+00	-2.13973e-04	
64	1.200000e+00	1.200000e+00	1.000000e+00	-2.50951e-04	
65	1.300000e+00	1.300000e+00	1.000000e+00	-2.87546e-04	
66	1.400000e+00	1.400000e+00	1.000000e+00	-3.20507e-04	
67	1.500000e+00	1.500000e+00	1.000000e+00	-3.46716e-04	
68	1.600000e+00	1.600000e+00	1.000000e+00	-3.66268e-04	
69	1.700000e+00	1.700000e+00	1.000000e+00	-3.80424e-04	
70	1.800000e+00	1.800000e+00	1.000000e+00	-3.90136e-04	
71	1.900000e+00	1.900000e+00	1.000000e+00	-3.96111e-04	
72	2.000000e+00	2.000000e+00	1.000000e+00	-3.98947e-04	
73	2.100000e+00	2.100000e+00	1.000000e+00	-3.99177e-04	
74	2.200000e+00	2.200000e+00	1.000000e+00	-3.97278e-04	
75	2.300000e+00	2.300000e+00	1.000000e+00	-3.93667e-04	
76	2.400000e+00	2.400000e+00	1.000000e+00	-3.88703e-04	
77	2.500000e+00	2.500000e+00	1.000000e+00	-3.82693e-04	
78	0.000000e+00	0.000000e+00	1.500000e+00	-1.98952e-08	
79	1.000000e-01	1.000000e-01	1.500000e+00	-4.53881e-07	
80	2.000000e-01	2.000000e-01	1.500000e+00	-3.33347e-06	
81	3.000000e-01	3.000000e-01	1.500000e+00	-1.04420e-05	
82	4.000000e-01	4.000000e-01	1.500000e+00	-2.22770e-05	
83	5.000000e-01	5.000000e-01	1.500000e+00	-3.88439e-05	
84	6.000000e-01	6.000000e-01	1.500000e+00	-5.99037e-05	
85	7.000000e-01	7.000000e-01	1.500000e+00	-8.50693e-05	
86	8.000000e-01	8.000000e-01	1.500000e+00	-1.13858e-04	
87	9.000000e-01	9.000000e-01	1.500000e+00	-1.45730e-04	
88	1.000000e-00	1.000000e-00	1.500000e+00	-1.80113e-04	
89	1.100000e+00	1.100000e+00	1.500000e+00	-2.16434e-04	
90	1.200000e+00	1.200000e+00	1.500000e+00	-2.54131e-04	
91	1.300000e+00	1.300000e+00	1.500000e+00	-2.92674e-04	
92	1.400000e+00	1.400000e+00	1.500000e+00	-3.31474e-04	
93	1.500000e+00	1.500000e+00	1.500000e+00	-3.70498e-04	
94	1.600000e+00	1.600000e+00	1.500000e+00	-4.08998e-04	
95	1.700000e+00	1.700000e+00	1.500000e+00	-4.45954e-04	
96	1.800000e+00	1.800000e+00	1.500000e+00	-4.81482e-04	
97	1.900000e+00	1.900000e+00	1.500000e+00	-5.13759e-04	
98	2.000000e+00	2.000000e+00	1.500000e+00	-5.40326e-04	
99	2.100000e+00	2.100000e+00	1.500000e+00	-5.59040e-04	
100	2.200000e+00	2.200000e+00	1.500000e+00	-5.69954e-04	
101	2.300000e+00	2.300000e+00	1.500000e+00	-5.74717e-04	
102	2.400000e+00	2.400000e+00	1.500000e+00	-5.74997e-04	
103	2.500000e+00	2.500000e+00	1.500000e+00	-5.71988e-04	
104	0.000000e+00	0.000000e+00	2.000000e+00	-2.04558e-08	
105	1.000000e-01	1.000000e-01	2.000000e+00	-4.68207e-07	
106	2.000000e-01	2.000000e-01	2.000000e+00	-3.42015e-06	
107	3.000000e-01	3.000000e-01	2.000000e+00	-1.06380e-05	
108	4.000000e-01	4.000000e-01	2.000000e+00	-2.25966e-05	
109	5.000000e-01	5.000000e-01	2.000000e+00	-3.92975e-05	
110	6.000000e-01	6.000000e-01	2.000000e+00	-6.05012e-05	
111	7.000000e-01	7.000000e-01	2.000000e+00	-8.58205e-05	
112	8.000000e-01	8.000000e-01	2.000000e+00	-1.14773e-04	
113	9.000000e-01	9.000000e-01	2.000000e+00	-1.46819e-04	
114	1.000000e-00	1.000000e-00	2.000000e+00	-1.81390e-04	
115	1.100000e+00	1.100000e+00	2.000000e+00	-2.17911e-04	
116	1.200000e+00	1.200000e+00	2.000000e+00	-2.55824e-04	
117	1.300000e+00	1.300000e+00	2.000000e+00	-2.94602e-04	
118	1.400000e+00	1.400000e+00	2.000000e+00	-3.33648e-04	
119	1.500000e+00	1.500000e+00	2.000000e+00	-3.72965e-04	
120	1.600000e+00	1.600000e+00	2.000000e+00	-4.11825e-04	
121	1.700000e+00	1.700000e+00	2.000000e+00	-4.49908e-04	
122	1.800000e+00	1.800000e+00	2.000000e+00	-4.86399e-04	
123	1.900000e+00	1.900000e+00	2.000000e+00	-5.22077e-04	
124	2.000000e+00	2.000000e+00	2.000000e+00	-5.56335e-04	
125	2.100000e+00	2.100000e+00	2.000000e+00	-5.89000e-04	
126	2.200000e+00	2.200000e+00	2.000000e+00	-6.19860e-04	
127	2.300000e+00	2.300000e+00	2.000000e+00	-6.48558e-04	
128	2.400000e+00	2.400000e+00	2.000000e+00	-6.74415e-04	
129	2.500000e+00	2.500000e+00	2.000000e+00	-6.96233e-04	
130	0.000000e+00	0.000000e+00	2.500000e+00	-2.09135e-08	
131	1.000000e-01	1.000000e-01	2.500000e+00	-4.79975e-07	
132	2.000000e-01	2.000000e-01	2.500000e+00	-3.49100e-06	
133	3.000000e-01	3.000000e-01	2.500000e+00	-1.07963e-05	
134	4.000000e-01	4.000000e-01	2.500000e+00	-2.28515e-05	
135	5.000000e-01	5.000000e-01	2.500000e+00	-3.96549e-05	
136	6.000000e-01	6.000000e-01	2.500000e+00	-6.09662e-05	
137	7.000000e-01	7.000000e-01	2.500000e+00	-8.63978e-05	
138	8.000000e-01	8.000000e-01	2.500000e+00	-1.15467e-04	
139	9.000000e-01	9.000000e-01	2.500000e+00	-1.47634e-04	
140	1.000000e-00	1.000000e-00	2.500000e+00	-1.82329e-04	
141	1.100000e+00	1.100000e+00	2.500000e+00	-2.18979e-04	
142	1.200000e+00	1.200000e+00	2.500000e+00	-2.57025e-04	
143	1.300000e+00	1.300000e+00	2.500000e+00	-2.95941e-04	
144	1.400000e+00	1.400000e+00	2.500000e+00	-3.35127e-04	
145	1.500000e+00	1.500000e+00	2.500000e+00	-3.74594e-04	
146	1.600000e+00	1.600000e+00	2.500000e+00	-4.13612e-04	
147	1.700000e+00	1.700000e+00	2.500000e+00	-4.51864e-04	
148	1.800000e+00	1.800000e+00	2.500000e+00	-4.88545e-04	
149	1.900000e+00	1.900000e+00	2.500000e+00	-5.24432e-04	
150	2.000000e+00	2.000000e+00	2.500000e+00	-5.58945e-04	
151	2.100000e+00	2.100000e+00	2.500000e+00	-5.91964e-04	
152	2.200000e+00	2.200000e+00	2.500000e+00	-6.23407e-04	
153	2.300000e+00	2.300000e+00	2.500000e+00	-6.53221e-04	
154	2.400000e+00	2.400000e+00	2.500000e+00	-6.81375e-04	
155	2.500000e+00	2.500000e+00	2.500000e+00	-7.07848e-04	
156	0.000000e+00	0.000000e+00	3.000000e+00	-2.13018e-08	
157	1.000000e-01	1.000000e-01	3.000000e+00	-4.89999e-07	
158	2.000000e-01	2.000000e-01	3.000000e+00	-3.55113e-06	
159	3.000000e-01	3.000000e-01	3.000000e+00	-1.09294e-05	
160	4.000000e-01	4.000000e-01	3.000000e+00	-2.30641e-05	
161	5.000000e-01	5.000000e-01	3.000000e+00	-3.99506e-05	
162	6.000000e-01	6.000000e-01	3.000000e+00	-6.13478e-05	
163	7.000000e-01	7.000000e-01	3.000000e+00	-8.68677e-05	
164	8.000000e-01	8.000000e-01	3.000000e+00	-1.16027e-04	
165	9.000000e-01	9.000000e-01	3.000000e+00	-1.48286e-04	
166	1.000000e-00	1.000000e-00	3.000000e+00	-1.83074e-04	
167	1.100000e+00	1.100000e+00	3.000000e+00	-2.19817e-04	
168	1.200000e+00	1.200000e+00	3.000000e+00	-2.57958e-04	
169	1.300000e+00	1.300000e+00	3.000000e+00	-2.96970e-04	
170	1.400000e+00	1.400000e+00	3.000000e+00	-3.36253e-04	
171	1.500000e+00	1.500000e+00	3.000000e+00	-3.75817e-04	
172	1.600000e+00	1.600000e+00	3.000000e+00	-4.14934e-04	
173	1.700000e+00	1.700000e+00	3.000000e+00	-4.53286e-04	
174	1.800000e+00	1.800000e+00	3.000000e+00	-4.90073e-04	
175	1.900000e+00	1.900000e+00	3.000000e+00	-5.26068e-04	
176	2.000000e+00	2.000000e+00	3.000000e+00	-5.60693e-04	
177	2.100000e+00	2.100000e+00	3.000000e+00	-5.93832e-04	
178	2.200000e+00	2.200000e+00	3.000000e+00	-6.25404e-04	
179	2.300000e+00	2.300000e+00	3.000000e+00	-6.55363e-04	
180	2.400000e+00	2.400000e+00	3.000000e+00	-6.83690e-04	
181	2.500000e+00	2.500000e+00	3.000000e+00	-7.10386e-04	
182	0.000000e+00	0.000000e+00	3.500000e+00	-2.16397e-08	
183	1.000000e-01	1.000000e-01	3.500000e+00	-4.98754e-07	
184	2.000000e-01	2.000000e-01	3.500000e+00	-3.60350e-06	
185	3.000000e-01	3.000000e-01	3.500000e+00	-1.10446e-05	
186	4.000000e-01	4.000000e-01	3.500000e+00	-2.32468e-05	
187	5.000000e-01	5.000000e-01	3.500000e+00	-4.02031e-05	
188	6.000000e-01	6.000000e-01	3.500000e+00	-6.16719e-05	
189	7.000000e-01	7.000000e-01	3.500000e+00	-8.72646e-05	
190	8.000000e-01	8.000000e-01	3.500000e+00	-1.16498e-04	
191	9.000000e-01	9.000000e-01	3.500000e+00	-1.48830e-04	
192	1.000000e-00	1.000000e-00	3.500000e+00	-1.83692e-04	
193	1.100000e+00	1.100000e+00	3.500000e+00	-2.20509e-04	
194	1.200000e+00	1.200000e+00	3.500000e+00	-2.58723e-04	
195	1.300000e+00	1.300000e+00	3.500000e+00	-2.97807e-04	
196	1.400000e+00	1.400000e+00	3.500000e+00	-3.37162e-04	
197	1.500000e+00	1.500000e+00	3.500000e+00	-3.76797e-04	
198	1.600000e+00	1.600000e+00	3.500000e+00	-4.15984e-04	
199	1.700000e+00	1.700000e+00	3.500000e+00	-4.54406e-04	
200	1.800000e+00	1.800000e+00	3.500000e+00	-4.91263e-04	
201	1.900000e+00	1.900000e+00	3.500000e+00	-5.27328e-04	
202	2.000000e+00	2.000000e+00	3.500000e+00	-5.62024e-04	
203	2.100000e+00	2.100000e+00	3.500000e+00	-5.95235e-04	
204	2.200000e+00	2.200000e+00	3.500000e+00	-6.26881e-04	
205	2.300000e+00	2.300000e+00	3.500000e+00	-6.56916e-04	
206	2.400000e+00	2.400000e+00	3.500000e+00	-6.85322e-04	
207	2.500000e+00	2.500000e+00	3.500000e+00	-7.12103e-04	
208	0.000000e+00	0.000000e+00	4.000000e+00	-2.19394e-08	
209	1.000000e-01	1.000000e-01	4.000000e+00	-5.06539e-07	
210	2.000000e-01	2.000000e-01	4.000000e+00	-3.64996e-06	
211	3.000000e-01	3.000000e-01	4.000000e+00	-1.11462e-05	
212	4.000000e-01	4.000000e-01	4.000000e+00	-2.34072e-05	
213	5.000000e-01	5.000000e-01	4.000000e+00	-4.04238e-05	
214	6.000000e-01	6.000000e-01	4.000000e+00	-6.19539e-05	
215	7.000000e-01	7.000000e-01	4.000000e+00	-8.76084e-05	
216	8.000000e-01	8.000000e-01	4.000000e+00	-1.16904e-04	
217	9.000000e-01	9.000000e-01	4.000000e+00	-1.49298e-04	
218	1.000000e-00	1.000000e-00	4.000000e+00	-1.84221e-04	
219	1.100000e+00	1.100000e+00	4.000000e+00	-2.21098e-04	
220	1.200000e+00	1.200000e+00	4.000000e+00	-2.59371e-04	
221	1.300000e+00	1.300000e+00	4.000000e+00	-2.98513e-04	
222	1.400000e+00	1.400000e+00	4.000000e+00	-3.37925e-04	
223	1.500000e+00	1.500000e+00	4.000000e+00	-3.77615e-04	
224	1.600000e+00	1.600000e+00	4.000000e+00	-4.16857e-04	
225	1.700000e+00	1.700000e+00	4.000000e+00	-4.55331e-04	
226	1.800000e+00	1.800000e+00	4.000000e+00	-4.92239e-04	
227	1.900000e+00	1.900000e+00	4.000000e+00	-5.28354e-04	
228	2.000000e+00	2.000000e+00	4.000000e+00	-5.63100e-04	
229	2.100000e+00	2.100000e+00	4.000000e+00	-5.96360e-04	
230	2.200000e+00	2.200000e+00	4.000000e+00	-6.28055e-04	
231	2.300000e+00	2.300000e+00	4.000000e+00	-6.58140e-04	
232	2.400000e+00	2.400000e+00	4.000000e+00	-6.86596e-04	
233	2.500000e+00	2.500000e+00	4.000000e+00	-7.13429e-04	
234	0.000000e+00	0.000000e+00	4.500000e+00	-2.22090e-08	
235	1.000000e-01	1.000000e-01	4.500000e+00	-5.13559e-07	
236	2.000000e-01	2.000000e-01	4.500000e+00	-3.69177e-06	
237	3.000000e-01	3.000000e-01	4.500000e+00	-1.12372e-05	
238	4.000000e-01	4.000000e-01	4.500000e+00	-2.35503e-05	
239	5.000000e-01	5.000000e-01	4.500000e+00	-4.06200e-05	
240	6.000000e-01	6.000000e-01	4.500000e+00	-6.22038e-05	
241	7.000000e-01	7.000000e-01	4.500000e+00	-8.79120e-05	
242	8.000000e-01	8.000000e-01	4.500000e+00	-1.17261e-04	
243	9.000000e-01	9.000000e-01	4.500000e+00	-1.49708e-04	
244	1.000000e-00	1.000000e-00	4.500000e+00	-1.84683e-04	
245	1.100000e+00	1.100000e+00	4.500000e+00	-2.21611e-04	
246	1.200000e+00	1.200000e+00	4.500000e+00	-2.59934e-04	
247	1.300000e+00	1.300000e+00	4.500000e+00	-2.99124e-04	
248	1.400000e+00	1.400000e+00	4.500000e+00	-3.38583e-04	
249	1.500000e+00	1.500000e+00	4.500000e+00	-3.78318e-04	
250	1.600000e+00	1.600000e+00	4.500000e+00	-4.17603e-04	
251	1.700000e+00	1.700000e+00	4.500000e+00	-4.56119e-04	
252	1.800000e+00	1.800000e+00	4.500000e+00	-4.93066e-04	
253	1.900000e+00	1.900000e+00	4.500000e+00	-5.29221e-04	
254	2.000000e+00	2.000000e+00	4.500000e+00	-5.64004e-04	
255	2.100000e+00	2.100000e+00	4.500000e+00	-5.97301e-04	
256	2.200000e+00	2.200000e+00	4.500000e+00	-6.29032e-04	
257	2.300000e+00	2.300000e+00	4.500000e+00	-6.59152e-04	
258	2.400000e+00	2.400000e+00	4.500000e+00	-6.87643e-04	
259	2.500000e+00	2.500000e+00	4.500000e+00	-7.14510e-04	
260	0.000000e+00	0.000000e+00	5.000000e+00	-2.24543e-08	
261	1.000000e-01	1.000000e-01	5.000000e+00	-5.19959e-07	
262	2.000000e-01	2.000000e-01	5.000000e+00	-3.72983e-06	
263	3.000000e-01	3.000000e-01	5.000000e+00	-1.13198e-05	
264	4.000000e-01	4.000000e-01	5.000000e+00	-2.36796e-05	
265	5.000000e-01	5.000000e-01	5.000000e+00	-4.07967e-05	
266	6.000000e-01	6.000000e-01	5.000000e+00	-6.24281e-05	
267	7.000000e-01	7.000000e-01	5.000000e+00	-8.81840e-05	
268	8.000000e-01	8.000000e-01	5.000000e+00	-1.17580e-04	
269	9.000000e-01	9.000000e-01	5.000000e+00	-1.50073e-04	
270	1.000000e-00	1.000000e-00	5.000000e+00	-1.85094e-04	
271	1.100000e+00	1.100000e+00	5.000000e+00	-2.22066e-04	
272	1.200000e+00	1.200000e+00	5.000000e+00	-2.60431e-04	
273	1.300000e+00	1.300000e+00	5.000000e+00	-2.99662e-04	
274	1.400000e+00	1.400000e+00	5.000000e+00	-3.39162e-04	
275	1.500000e+00	1.500000e+00	5.000000e+00	-3.78934e-04	
276	1.600000e+00	1.600000e+00	5.000000e+00	-4.18255e-04	
277	1.700000e+00	1.700000e+00	5.000000e+00	-4.56806e-04	
278	1.800000e+00	1.800000e+00	5.000000e+00	-4.93785e-04	
279	1.900000e+00	1.900000e+00	5.000000e+00	-5.29970e-04	
280	2.000000e+00	2.000000e+00	5.000000e+00	-5.64784e-04	
281	2.100000e+00	2.100000e+00	5.000000e+00	-5.98109e-04	
282	2.200000e+00	2.200000e+00	5.000000e+00	-6.29867e-04	
283	2.300000e+00	2.300000e+00	5.000000e+00	-6.60014e-04	
284	2.400000e+00	2.400000e+00	5.000000e+00	-6.88531e-04	
285	2.500000e+00	2.500000e+00	5.000000e+00	-7.15423e-04	
